<Qucs Dataset 0.0.15>
<indep x 10>
  +5.00000000000e+00
  +1.00000000000e+01
  +1.50000000000e+01
  +2.00000000000e+01
  +2.50000000000e+01
  +3.00000000000e+01
  +3.50000000000e+01
  +4.00000000000e+01
  +4.50000000000e+01
  +5.00000000000e+01
</indep>
<dep V1.I x>
  -3.42000000000e+00
  -2.28000000000e+00
  -1.71000000000e+00
  -1.36800000000e+00
  -1.14000000000e+00
  -9.77142857143e-01
  -8.55000000000e-01
  -7.60000000000e-01
  -6.84000000000e-01
  -6.21818181818e-01
</dep>
<dep izeja.V x>
  +1.71000000000e+01
  +2.28000000000e+01
  +2.56500000000e+01
  +2.73600000000e+01
  +2.85000000000e+01
  +2.93142857143e+01
  +2.99250000000e+01
  +3.04000000000e+01
  +3.07800000000e+01
  +3.10909090909e+01
</dep>
<dep _net0.V x>
  +3.42000000000e+01
  +3.42000000000e+01
  +3.42000000000e+01
  +3.42000000000e+01
  +3.42000000000e+01
  +3.42000000000e+01
  +3.42000000000e+01
  +3.42000000000e+01
  +3.42000000000e+01
  +3.42000000000e+01
</dep>
